T8770 000:013.008   SEGGER J-Link V6.80c Log File
T8770 000:014.260   DLL Compiled: Jun 19 2020 17:22:14
T8770 000:014.289   Logging started @ 2020-06-23 09:09
T8770 000:014.319 JLINK_SetWarnOutHandler(...)
T8770 000:014.590 - 0.286ms
T8770 000:014.831 JLINK_OpenEx(...)
T8770 000:023.714   Firmware: J-Link V11 compiled Jun  9 2020 13:38:27
T8770 000:024.221   Decompressing FW timestamp took 417 us
T8770 000:027.258   Hardware: V11.00
T8770 000:027.326   S/N: 261005416
T8770 000:027.368   OEM: SEGGER-EDU
T8770 000:027.406   Feature(s): FlashBP, GDB
T8770 000:031.908   TELNET listener socket opened on port 19021
T8770 000:032.525   WEBSRV Starting webserver
T8770 000:032.651   WEBSRV Failed to put socket into listener state (port 19080)
T8770 000:033.008   WEBSRV Webserver running on local port 19081
T8770 000:033.027 - 18.201ms returns "O.K."
T8770 000:033.094 JLINK_GetEmuCaps()
T8770 000:033.118 - 0.029ms returns 0xB9FF7BBF
T8770 000:033.319 JLINK_TIF_GetAvailable(...)
T8770 000:033.844 - 0.538ms
T8770 000:033.896 JLINK_SetErrorOutHandler(...)
T8770 000:033.909 - 0.018ms
T8770 000:033.940 JLINK_ExecCommand("ProjectFile = "C:\Users\Lorenzo\Documents\University\Tesi Magistrale\gestione ANT\nRF5_SDK_14.2.0_17b948a\examples\dfu\experimental_ant_bootloader\pca10040\dual_bank_ant_s212\arm5_no_packs\JLinkSettings.ini"", ...). 
T8770 000:055.570   Ref file found at: C:\Keil_v5\ARM\Segger\JLinkDevices.ref
T8770 000:055.791   XML referenced by ref file: C:\Program Files (x86)\SEGGER\JLink\JLinkDevices.xml
T8770 000:056.806   C:\Program Files (x86)\SEGGER\JLink\JLinkDevices.xml evaluated successfully.
T8770 000:140.436 - 106.517ms returns 0x00
T8770 000:142.735 JLINK_ExecCommand("Device = nRF52832_xxAA", ...). 
T8770 000:147.713   Device "NRF52832_XXAA" selected.
T8770 000:148.253 - 5.504ms returns 0x00
T8770 000:148.282 JLINK_ExecCommand("DisableConnectionTimeout", ...). 
T8770 000:148.301 - 0.009ms returns 0x01
T8770 000:148.315 JLINK_GetHardwareVersion()
T8770 000:148.326 - 0.015ms returns 0x1ADB0
T8770 000:148.345 JLINK_GetDLLVersion()  returns 68003
T8770 000:153.841 JLINK_GetDLLVersion()  returns 68003
T8770 000:153.873 JLINK_GetCompileDateTime()
T8770 000:153.883 - 0.016ms
T8770 000:155.452 JLINK_GetFirmwareString(...)
T8770 000:155.473 - 0.026ms
T8770 000:157.015 JLINK_GetHardwareVersion()
T8770 000:157.033 - 0.023ms returns 0x1ADB0
T8770 000:164.575 JLINK_TIF_Select(JLINKARM_TIF_SWD)
T8770 000:166.820 - 2.270ms returns 0x00
T8770 000:167.350 JLINK_SetSpeed(5000)
T8770 000:167.740 - 0.402ms
T8770 000:167.789 JLINK_GetId()
T8770 000:170.314   InitTarget() start
T8770 000:170.341    J-Link Script File: Executing InitTarget()
T8770 000:175.331   InitTarget() end
T8770 000:178.640   Found SW-DP with ID 0x2BA01477
T8770 000:184.339   DPIDR: 0x2BA01477
T8770 000:186.434   Scanning AP map to find all available APs
T8770 000:190.010   AP[2]: Stopped AP scan as end of AP map has been reached
T8770 000:191.631   AP[0]: AHB-AP (IDR: 0x24770011)
T8770 000:193.493   AP[1]: JTAG-AP (IDR: 0x02880000)
T8770 000:195.409   Iterating through AP map to find AHB-AP to use
T8770 000:198.308   AP[0]: Core found
T8770 000:200.530   AP[0]: AHB-AP ROM base: 0xE00FF000
T8770 000:202.845   CPUID register: 0x410FC241. Implementer code: 0x41 (ARM)
T8770 000:204.432   Found Cortex-M4 r0p1, Little endian.
T8770 000:306.885   -- Max. mem block: 0x00003FB0
T8770 000:308.090   CPU_ReadMem(4 bytes @ 0xE000EDF0)
T8770 000:311.202   CPU_ReadMem(4 bytes @ 0xE0002000)
T8770 000:313.754   FPUnit: 6 code (BP) slots and 2 literal slots
T8770 000:313.785   CPU_ReadMem(4 bytes @ 0xE000EDFC)
T8770 000:314.509   CPU_WriteMem(4 bytes @ 0xE000EDFC)
T8770 000:315.094   CPU_ReadMem(4 bytes @ 0xE0001000)
T8770 000:315.643   CPU_WriteMem(4 bytes @ 0xE0001000)
T8770 000:316.346   CPU_ReadMem(4 bytes @ 0xE000ED88)
T8770 000:317.025   CPU_WriteMem(4 bytes @ 0xE000ED88)
T8770 000:317.709   CPU_ReadMem(4 bytes @ 0xE000ED88)
T8770 000:318.318   CPU_WriteMem(4 bytes @ 0xE000ED88)
T8770 000:320.871   CoreSight components:
T8770 000:322.816   ROMTbl[0] @ E00FF000
T8770 000:322.845   CPU_ReadMem(64 bytes @ 0xE00FF000)
T8770 000:323.648   CPU_ReadMem(32 bytes @ 0xE000EFE0)
T8770 000:325.884   ROMTbl[0][0]: E000E000, CID: B105E00D, PID: 000BB00C SCS-M7
T8770 000:325.913   CPU_ReadMem(32 bytes @ 0xE0001FE0)
T8770 000:328.244   ROMTbl[0][1]: E0001000, CID: B105E00D, PID: 003BB002 DWT
T8770 000:328.272   CPU_ReadMem(32 bytes @ 0xE0002FE0)
T8770 000:330.546   ROMTbl[0][2]: E0002000, CID: B105E00D, PID: 002BB003 FPB
T8770 000:330.577   CPU_ReadMem(32 bytes @ 0xE0000FE0)
T8770 000:333.322   ROMTbl[0][3]: E0000000, CID: B105E00D, PID: 003BB001 ITM
T8770 000:333.362   CPU_ReadMem(32 bytes @ 0xE0040FE0)
T8770 000:335.848   ROMTbl[0][4]: E0040000, CID: B105900D, PID: 000BB9A1 TPIU
T8770 000:335.879   CPU_ReadMem(32 bytes @ 0xE0041FE0)
T8770 000:338.218   ROMTbl[0][5]: E0041000, CID: B105900D, PID: 000BB925 ETM
T8770 000:338.843 - 171.068ms   returns 0x2BA01477
T8770 000:338.901 JLINK_GetDLLVersion()  returns 68003
T8770 000:338.917 JLINK_CORE_GetFound()
T8770 000:338.928 - 0.015ms returns 0xE0000FF
T8770 000:338.947 JLINK_GetDebugInfo(0x100 = JLINKARM_ROM_TABLE_ADDR_INDEX)
T8770 000:338.959   Value=0xE00FF000
T8770 000:338.973 - 0.032ms returns 0x00
T8770 000:340.549 JLINK_GetDebugInfo(0x100 = JLINKARM_ROM_TABLE_ADDR_INDEX)
T8770 000:340.569   Value=0xE00FF000
T8770 000:340.584 - 0.040ms returns 0x00
T8770 000:340.597 JLINK_GetDebugInfo(0x101 = JLINKARM_DEBUG_INFO_ETM_ADDR_INDEX)
T8770 000:340.611   Value=0xE0041000
T8770 000:340.626 - 0.033ms returns 0x00
T8770 000:340.639   JLINK_ReadMemEx(0xE0041FD0, 0x0020 Bytes, ..., Flags = 0x02000004)
T8770 000:341.305   CPU_ReadMem(32 bytes @ 0xE0041FD0)
T8770 000:342.044   Data:  04 00 00 00 00 00 00 00 00 00 00 00 00 00 00 00 ...
T8770 000:342.068 - 1.435ms returns 0x20
T8770 000:342.111 JLINK_GetDebugInfo(0x102 = JLINKARM_DEBUG_INFO_MTB_ADDR_INDEX)
T8770 000:342.124   Value=0x00000000
T8770 000:342.139 - 0.032ms returns 0x00
T8770 000:342.151 JLINK_GetDebugInfo(0x103 = JLINKARM_DEBUG_INFO_TPIU_ADDR_INDEX)
T8770 000:342.161   Value=0xE0040000
T8770 000:342.176 - 0.029ms returns 0x00
T8770 000:342.188 JLINK_GetDebugInfo(0x104 = JLINKARM_DEBUG_INFO_ITM_ADDR_INDEX)
T8770 000:342.198   Value=0xE0000000
T8770 000:342.212 - 0.028ms returns 0x00
T8770 000:342.223 JLINK_GetDebugInfo(0x105 = JLINKARM_DEBUG_INFO_DWT_ADDR_INDEX)
T8770 000:342.233   Value=0xE0001000
T8770 000:342.247 - 0.028ms returns 0x00
T8770 000:342.259 JLINK_GetDebugInfo(0x106 = JLINKARM_DEBUG_INFO_FPB_ADDR_INDEX)
T8770 000:342.269   Value=0xE0002000
T8770 000:342.283 - 0.028ms returns 0x00
T8770 000:342.295 JLINK_GetDebugInfo(0x107 = JLINKARM_DEBUG_INFO_NVIC_ADDR_INDEX)
T8770 000:342.305   Value=0xE000E000
T8770 000:342.319 - 0.028ms returns 0x00
T8770 000:342.331 JLINK_GetDebugInfo(0x10C = JLINKARM_DEBUG_INFO_DBG_ADDR_INDEX)
T8770 000:342.341   Value=0xE000EDF0
T8770 000:342.355 - 0.028ms returns 0x00
T8770 000:342.367 JLINK_GetDebugInfo(0x01 = Unknown)
T8770 000:342.379   Value=0x00000001
T8770 000:342.393 - 0.031ms returns 0x00
T8770 000:342.405 JLINK_ReadMemU32(0xE000ED00, 0x0001 Items, ...)
T8770 000:342.421   CPU_ReadMem(4 bytes @ 0xE000ED00)
T8770 000:343.033   Data:  41 C2 0F 41
T8770 000:343.058   Debug reg: CPUID
T8770 000:343.072 - 0.672ms returns 1
T8770 000:343.115 JLINK_GetDebugInfo(0x10F = JLINKARM_DEBUG_INFO_HAS_CORTEX_M_SECURITY_EXT_INDEX)
T8770 000:343.129   Value=0x00000000
T8770 000:343.143 - 0.033ms returns 0x00
T8770 000:343.160 JLINK_SetResetType(JLINKARM_CM3_RESET_TYPE_NORMAL)
T8770 000:343.170 - 0.015ms returns JLINKARM_CM3_RESET_TYPE_NORMAL
T8770 000:343.183 JLINK_Reset()
T8770 000:343.313   CPU is running
T8770 000:343.338   CPU_WriteMem(4 bytes @ 0xE000EDF0)
T8770 000:343.949   CPU is running
T8770 000:343.975   CPU_WriteMem(4 bytes @ 0xE000EDFC)
T8770 000:346.808   Reset: Halt core after reset via DEMCR.VC_CORERESET.
T8770 000:349.874   Reset: Reset device via AIRCR.SYSRESETREQ.
T8770 000:349.912   CPU is running
T8770 000:349.931   CPU_WriteMem(4 bytes @ 0xE000ED0C)
T8770 000:403.510   CPU_ReadMem(4 bytes @ 0xE000EDF0)
T8770 000:404.181   CPU_ReadMem(4 bytes @ 0xE000EDF0)
T8770 000:404.799   CPU is running
T8770 000:404.825   CPU_WriteMem(4 bytes @ 0xE000EDF0)
T8770 000:405.463   CPU is running
T8770 000:405.488   CPU_WriteMem(4 bytes @ 0xE000EDFC)
T8770 000:411.351   CPU_ReadMem(4 bytes @ 0xE000EDF0)
T8770 000:414.658   CPU_WriteMem(4 bytes @ 0xE0002000)
T8770 000:415.210   CPU_ReadMem(4 bytes @ 0xE000EDFC)
T8770 000:415.813   CPU_ReadMem(4 bytes @ 0xE0001000)
T8770 000:416.489 - 73.319ms
T8770 000:416.547 JLINK_Halt()
T8770 000:416.560 - 0.017ms returns 0x00
T8770 000:416.581 JLINK_ReadMemU32(0xE000EDF0, 0x0001 Items, ...)
T8770 000:416.611   CPU_ReadMem(4 bytes @ 0xE000EDF0)
T8770 000:417.219   Data:  03 00 03 00
T8770 000:417.243   Debug reg: DHCSR
T8770 000:417.257 - 0.681ms returns 1
T8770 000:417.302 JLINK_WriteU32(0xE000EDF0, 0xA05F0003)
T8770 000:417.320   Debug reg: DHCSR
T8770 000:417.351   CPU_WriteMem(4 bytes @ 0xE000EDF0)
T8770 000:417.897 - 0.607ms returns 0
T8770 000:417.948 JLINK_WriteU32(0xE000EDFC, 0x01000000)
T8770 000:417.962   Debug reg: DEMCR
T8770 000:417.983   CPU_WriteMem(4 bytes @ 0xE000EDFC)
T8770 000:418.521 - 0.586ms returns 0
T8770 000:424.605 JLINK_GetHWStatus(...)
T8770 000:425.169 - 0.577ms returns 0x00
T8770 000:429.518 JLINK_GetNumBPUnits(Type = 0xFFFFFF00)
T8770 000:429.538 - 0.025ms returns 0x06
T8770 000:429.551 JLINK_GetNumBPUnits(Type = 0xF0)
T8770 000:429.561 - 0.014ms returns 0x2000
T8770 000:429.573 JLINK_GetNumWPUnits()
T8770 000:429.583 - 0.014ms returns 0x04
T8770 000:434.478 JLINK_GetSpeed()
T8770 000:434.504 - 0.031ms returns 0x1388
T8770 000:437.415 JLINK_ReadMemU32(0xE000E004, 0x0001 Items, ...)
T8770 000:437.450   CPU_ReadMem(4 bytes @ 0xE000E004)
T8770 000:438.094   Data:  01 00 00 00
T8770 000:438.118 - 0.708ms returns 1
T8770 000:438.162 JLINK_ReadMemU32(0xE000E004, 0x0001 Items, ...)
T8770 000:438.181   CPU_ReadMem(4 bytes @ 0xE000E004)
T8770 000:438.789   Data:  01 00 00 00
T8770 000:438.813 - 0.655ms returns 1
T8770 000:438.855 JLINK_WriteMemEx(0xE0001000, 0x001C Bytes, ..., Flags = 0x02000004)
T8770 000:438.868   Data:  01 00 00 00 00 00 00 00 00 00 00 00 00 00 00 00 ...
T8770 000:439.408   CPU_WriteMem(28 bytes @ 0xE0001000)
T8770 000:440.114 - 1.274ms returns 0x1C
T8770 000:440.179 JLINK_Halt()
T8770 000:440.192 - 0.018ms returns 0x00
T8770 000:440.204 JLINK_IsHalted()
T8770 000:440.215 - 0.015ms returns TRUE
T8770 000:444.671 JLINK_WriteMem(0x20000000, 0x0234 Bytes, ...)
T8770 000:444.690   Data:  00 BE 0A E0 0D 78 2D 06 68 40 08 24 40 00 00 D3 ...
T8770 000:445.283   CPU_WriteMem(564 bytes @ 0x20000000)
T8770 000:447.641 - 2.986ms returns 0x234
T8770 000:447.781 JLINK_WriteReg(R0, 0x00000000)
T8770 000:447.803 - 0.032ms returns 0x00
T8770 000:447.825 JLINK_WriteReg(R1, 0x03D09000)
T8770 000:447.841 - 0.023ms returns 0x00
T8770 000:447.859 JLINK_WriteReg(R2, 0x00000001)
T8770 000:447.876 - 0.023ms returns 0x00
T8770 000:447.892 JLINK_WriteReg(R3, 0x00000000)
T8770 000:447.907 - 0.022ms returns 0x00
T8770 000:447.923 JLINK_WriteReg(R4, 0x00000000)
T8770 000:447.938 - 0.021ms returns 0x00
T8770 000:447.953 JLINK_WriteReg(R5, 0x00000000)
T8770 000:447.966 - 0.019ms returns 0x00
T8770 000:447.983 JLINK_WriteReg(R6, 0x00000000)
T8770 000:447.995 - 0.019ms returns 0x00
T8770 000:448.011 JLINK_WriteReg(R7, 0x00000000)
T8770 000:448.025 - 0.020ms returns 0x00
T8770 000:448.040 JLINK_WriteReg(R8, 0x00000000)
T8770 000:448.054 - 0.020ms returns 0x00
T8770 000:448.070 JLINK_WriteReg(R9, 0x20000230)
T8770 000:448.083 - 0.019ms returns 0x00
T8770 000:448.099 JLINK_WriteReg(R10, 0x00000000)
T8770 000:448.113 - 0.020ms returns 0x00
T8770 000:448.128 JLINK_WriteReg(R11, 0x00000000)
T8770 000:448.142 - 0.020ms returns 0x00
T8770 000:448.158 JLINK_WriteReg(R12, 0x00000000)
T8770 000:448.175 - 0.023ms returns 0x00
T8770 000:448.191 JLINK_WriteReg(R13 (SP), 0x20002000)
T8770 000:448.209 - 0.025ms returns 0x00
T8770 000:448.226 JLINK_WriteReg(R14, 0x20000001)
T8770 000:448.247 - 0.030ms returns 0x00
T8770 000:448.266 JLINK_WriteReg(R15 (PC), 0x2000003C)
T8770 000:448.290 - 0.030ms returns 0x00
T8770 000:448.306 JLINK_WriteReg(XPSR, 0x01000000)
T8770 000:448.320 - 0.020ms returns 0x00
T8770 000:448.340 JLINK_WriteReg(MSP, 0x20002000)
T8770 000:448.355 - 0.022ms returns 0x00
T8770 000:448.373 JLINK_WriteReg(PSP, 0x20002000)
T8770 000:448.387 - 0.020ms returns 0x00
T8770 000:448.403 JLINK_WriteReg(CFBP, 0x00000000)
T8770 000:448.417 - 0.020ms returns 0x00
T8770 000:448.435   JLINK_SetBPEx(Addr = 0x20000000, Type = 0xFFFFFFF2)
T8770 000:448.473   CPU_ReadMem(2 bytes @ 0x20000000)
T8770 000:449.133 - 0.722ms returns 0x00000001
T8770 000:449.196 JLINK_Go()
T8770 000:449.254   CPU_WriteMem(2 bytes @ 0x20000000)
T8770 000:449.869   CPU_ReadMem(4 bytes @ 0xE0001000)
T8770 000:450.509   CPU_WriteMem(4 bytes @ 0xE0002008)
T8770 000:450.536   CPU_WriteMem(4 bytes @ 0xE000200C)
T8770 000:450.551   CPU_WriteMem(4 bytes @ 0xE0002010)
T8770 000:450.566   CPU_WriteMem(4 bytes @ 0xE0002014)
T8770 000:450.581   CPU_WriteMem(4 bytes @ 0xE0002018)
T8770 000:450.595   CPU_WriteMem(4 bytes @ 0xE000201C)
T8770 000:451.664   CPU_WriteMem(4 bytes @ 0xE0001004)
T8770 000:454.317 - 5.141ms
T8770 000:454.384 JLINK_IsHalted()
T8770 000:456.753   CPU_ReadMem(2 bytes @ 0x20000000)
T8770 000:457.336 - 2.965ms returns TRUE
T8770 000:457.387 JLINK_ReadReg(R15 (PC))
T8770 000:457.404 - 0.022ms returns 0x20000000
T8770 000:457.417 JLINK_ClrBPEx(BPHandle = 0x00000001)
T8770 000:457.428 - 0.016ms returns 0x00
T8770 000:457.441 JLINK_ReadReg(R0)
T8770 000:457.452 - 0.016ms returns 0x00000000
T8770 000:458.544 JLINK_WriteReg(R0, 0x00079000)
T8770 000:458.565 - 0.027ms returns 0x00
T8770 000:458.579 JLINK_WriteReg(R1, 0x00001000)
T8770 000:458.590 - 0.016ms returns 0x00
T8770 000:458.603 JLINK_WriteReg(R2, 0x000000FF)
T8770 000:458.615 - 0.017ms returns 0x00
T8770 000:458.627 JLINK_WriteReg(R3, 0x00000000)
T8770 000:458.638 - 0.015ms returns 0x00
T8770 000:458.650 JLINK_WriteReg(R4, 0x00000000)
T8770 000:458.660 - 0.015ms returns 0x00
T8770 000:458.672 JLINK_WriteReg(R5, 0x00000000)
T8770 000:458.683 - 0.015ms returns 0x00
T8770 000:458.695 JLINK_WriteReg(R6, 0x00000000)
T8770 000:458.705 - 0.015ms returns 0x00
T8770 000:458.717 JLINK_WriteReg(R7, 0x00000000)
T8770 000:458.728 - 0.015ms returns 0x00
T8770 000:458.740 JLINK_WriteReg(R8, 0x00000000)
T8770 000:458.750 - 0.015ms returns 0x00
T8770 000:458.762 JLINK_WriteReg(R9, 0x20000230)
T8770 000:458.773 - 0.015ms returns 0x00
T8770 000:458.785 JLINK_WriteReg(R10, 0x00000000)
T8770 000:458.795 - 0.016ms returns 0x00
T8770 000:458.808 JLINK_WriteReg(R11, 0x00000000)
T8770 000:458.818 - 0.015ms returns 0x00
T8770 000:458.830 JLINK_WriteReg(R12, 0x00000000)
T8770 000:458.840 - 0.015ms returns 0x00
T8770 000:458.853 JLINK_WriteReg(R13 (SP), 0x20002000)
T8770 000:458.863 - 0.016ms returns 0x00
T8770 000:458.875 JLINK_WriteReg(R14, 0x20000001)
T8770 000:458.886 - 0.015ms returns 0x00
T8770 000:458.898 JLINK_WriteReg(R15 (PC), 0x2000011A)
T8770 000:458.908 - 0.015ms returns 0x00
T8770 000:458.920 JLINK_WriteReg(XPSR, 0x01000000)
T8770 000:458.930 - 0.016ms returns 0x00
T8770 000:458.943 JLINK_WriteReg(MSP, 0x20002000)
T8770 000:458.953 - 0.015ms returns 0x00
T8770 000:458.965 JLINK_WriteReg(PSP, 0x20002000)
T8770 000:458.975 - 0.015ms returns 0x00
T8770 000:458.988 JLINK_WriteReg(CFBP, 0x00000000)
T8770 000:458.998 - 0.015ms returns 0x00
T8770 000:459.011   JLINK_SetBPEx(Addr = 0x20000000, Type = 0xFFFFFFF2)
T8770 000:459.027 - 0.021ms returns 0x00000002
T8770 000:459.039 JLINK_Go()
T8770 000:459.057   CPU_ReadMem(4 bytes @ 0xE0001000)
T8770 000:461.571 - 2.546ms
T8770 000:461.619 JLINK_IsHalted()
T8770 000:462.106 - 0.497ms returns FALSE
T8770 000:472.195 JLINK_IsHalted()
T8770 000:474.931   CPU_ReadMem(2 bytes @ 0x20000000)
T8770 000:475.604 - 3.423ms returns TRUE
T8770 000:475.659 JLINK_ReadReg(R15 (PC))
T8770 000:475.677 - 0.023ms returns 0x20000000
T8770 000:475.691 JLINK_ClrBPEx(BPHandle = 0x00000002)
T8770 000:475.749 - 0.063ms returns 0x00
T8770 000:475.763 JLINK_ReadReg(R0)
T8770 000:475.774 - 0.016ms returns 0x00000000
T8770 000:476.379 JLINK_WriteReg(R0, 0x0007A000)
T8770 000:476.399 - 0.025ms returns 0x00
T8770 000:476.412 JLINK_WriteReg(R1, 0x00001000)
T8770 000:476.423 - 0.016ms returns 0x00
T8770 000:476.435 JLINK_WriteReg(R2, 0x000000FF)
T8770 000:476.446 - 0.015ms returns 0x00
T8770 000:476.459 JLINK_WriteReg(R3, 0x00000000)
T8770 000:476.469 - 0.015ms returns 0x00
T8770 000:476.481 JLINK_WriteReg(R4, 0x00000000)
T8770 000:476.492 - 0.015ms returns 0x00
T8770 000:476.504 JLINK_WriteReg(R5, 0x00000000)
T8770 000:476.515 - 0.015ms returns 0x00
T8770 000:476.527 JLINK_WriteReg(R6, 0x00000000)
T8770 000:476.537 - 0.015ms returns 0x00
T8770 000:476.550 JLINK_WriteReg(R7, 0x00000000)
T8770 000:476.560 - 0.015ms returns 0x00
T8770 000:476.573 JLINK_WriteReg(R8, 0x00000000)
T8770 000:476.583 - 0.015ms returns 0x00
T8770 000:476.595 JLINK_WriteReg(R9, 0x20000230)
T8770 000:476.606 - 0.015ms returns 0x00
T8770 000:476.618 JLINK_WriteReg(R10, 0x00000000)
T8770 000:476.629 - 0.015ms returns 0x00
T8770 000:476.641 JLINK_WriteReg(R11, 0x00000000)
T8770 000:476.652 - 0.016ms returns 0x00
T8770 000:476.664 JLINK_WriteReg(R12, 0x00000000)
T8770 000:476.675 - 0.015ms returns 0x00
T8770 000:476.687 JLINK_WriteReg(R13 (SP), 0x20002000)
T8770 000:476.698 - 0.016ms returns 0x00
T8770 000:476.710 JLINK_WriteReg(R14, 0x20000001)
T8770 000:476.721 - 0.015ms returns 0x00
T8770 000:476.733 JLINK_WriteReg(R15 (PC), 0x2000011A)
T8770 000:476.744 - 0.016ms returns 0x00
T8770 000:476.757 JLINK_WriteReg(XPSR, 0x01000000)
T8770 000:476.767 - 0.015ms returns 0x00
T8770 000:476.780 JLINK_WriteReg(MSP, 0x20002000)
T8770 000:476.790 - 0.015ms returns 0x00
T8770 000:476.802 JLINK_WriteReg(PSP, 0x20002000)
T8770 000:476.813 - 0.015ms returns 0x00
T8770 000:476.825 JLINK_WriteReg(CFBP, 0x00000000)
T8770 000:476.836 - 0.016ms returns 0x00
T8770 000:476.849   JLINK_SetBPEx(Addr = 0x20000000, Type = 0xFFFFFFF2)
T8770 000:476.865 - 0.021ms returns 0x00000003
T8770 000:476.878 JLINK_Go()
T8770 000:476.896   CPU_ReadMem(4 bytes @ 0xE0001000)
T8770 000:479.983 - 3.120ms
T8770 000:480.039 JLINK_IsHalted()
T8770 000:480.638 - 0.611ms returns FALSE
T8770 000:482.153 JLINK_IsHalted()
T8770 000:484.728   CPU_ReadMem(2 bytes @ 0x20000000)
T8770 000:485.332 - 3.193ms returns TRUE
T8770 000:485.386 JLINK_ReadReg(R15 (PC))
T8770 000:485.403 - 0.022ms returns 0x20000000
T8770 000:485.416 JLINK_ClrBPEx(BPHandle = 0x00000003)
T8770 000:485.428 - 0.017ms returns 0x00
T8770 000:485.441 JLINK_ReadReg(R0)
T8770 000:485.453 - 0.016ms returns 0x00000000
T8770 000:486.053 JLINK_WriteReg(R0, 0x0007B000)
T8770 000:486.072 - 0.025ms returns 0x00
T8770 000:486.085 JLINK_WriteReg(R1, 0x00001000)
T8770 000:486.096 - 0.027ms returns 0x00
T8770 000:486.121 JLINK_WriteReg(R2, 0x000000FF)
T8770 000:486.132 - 0.016ms returns 0x00
T8770 000:486.144 JLINK_WriteReg(R3, 0x00000000)
T8770 000:486.154 - 0.016ms returns 0x00
T8770 000:486.167 JLINK_WriteReg(R4, 0x00000000)
T8770 000:486.178 - 0.016ms returns 0x00
T8770 000:486.190 JLINK_WriteReg(R5, 0x00000000)
T8770 000:486.200 - 0.015ms returns 0x00
T8770 000:486.213 JLINK_WriteReg(R6, 0x00000000)
T8770 000:486.223 - 0.015ms returns 0x00
T8770 000:486.236 JLINK_WriteReg(R7, 0x00000000)
T8770 000:486.246 - 0.015ms returns 0x00
T8770 000:486.258 JLINK_WriteReg(R8, 0x00000000)
T8770 000:486.269 - 0.015ms returns 0x00
T8770 000:486.281 JLINK_WriteReg(R9, 0x20000230)
T8770 000:486.292 - 0.015ms returns 0x00
T8770 000:486.304 JLINK_WriteReg(R10, 0x00000000)
T8770 000:486.315 - 0.015ms returns 0x00
T8770 000:486.327 JLINK_WriteReg(R11, 0x00000000)
T8770 000:486.338 - 0.015ms returns 0x00
T8770 000:486.350 JLINK_WriteReg(R12, 0x00000000)
T8770 000:486.360 - 0.015ms returns 0x00
T8770 000:486.373 JLINK_WriteReg(R13 (SP), 0x20002000)
T8770 000:486.384 - 0.016ms returns 0x00
T8770 000:486.396 JLINK_WriteReg(R14, 0x20000001)
T8770 000:486.410 - 0.021ms returns 0x00
T8770 000:486.425 JLINK_WriteReg(R15 (PC), 0x2000011A)
T8770 000:486.436 - 0.016ms returns 0x00
T8770 000:486.448 JLINK_WriteReg(XPSR, 0x01000000)
T8770 000:486.459 - 0.015ms returns 0x00
T8770 000:486.471 JLINK_WriteReg(MSP, 0x20002000)
T8770 000:486.482 - 0.015ms returns 0x00
T8770 000:486.494 JLINK_WriteReg(PSP, 0x20002000)
T8770 000:486.504 - 0.015ms returns 0x00
T8770 000:486.516 JLINK_WriteReg(CFBP, 0x00000000)
T8770 000:486.527 - 0.015ms returns 0x00
T8770 000:486.540   JLINK_SetBPEx(Addr = 0x20000000, Type = 0xFFFFFFF2)
T8770 000:486.556 - 0.021ms returns 0x00000004
T8770 000:486.569 JLINK_Go()
T8770 000:486.586   CPU_ReadMem(4 bytes @ 0xE0001000)
T8770 000:489.448 - 2.893ms
T8770 000:489.502 JLINK_IsHalted()
T8770 000:490.095 - 0.607ms returns FALSE
T8770 000:492.123 JLINK_IsHalted()
T8770 000:494.647   CPU_ReadMem(2 bytes @ 0x20000000)
T8770 000:495.293 - 3.184ms returns TRUE
T8770 000:495.348 JLINK_ReadReg(R15 (PC))
T8770 000:495.365 - 0.022ms returns 0x20000000
T8770 000:495.393 JLINK_ClrBPEx(BPHandle = 0x00000004)
T8770 000:495.412 - 0.027ms returns 0x00
T8770 000:495.436 JLINK_ReadReg(R0)
T8770 000:495.449 - 0.018ms returns 0x00000000
T8770 000:495.949 JLINK_WriteReg(R0, 0x0007C000)
T8770 000:495.968 - 0.023ms returns 0x00
T8770 000:495.981 JLINK_WriteReg(R1, 0x00001000)
T8770 000:495.992 - 0.016ms returns 0x00
T8770 000:496.004 JLINK_WriteReg(R2, 0x000000FF)
T8770 000:496.015 - 0.015ms returns 0x00
T8770 000:496.027 JLINK_WriteReg(R3, 0x00000000)
T8770 000:496.038 - 0.016ms returns 0x00
T8770 000:496.050 JLINK_WriteReg(R4, 0x00000000)
T8770 000:496.061 - 0.015ms returns 0x00
T8770 000:496.073 JLINK_WriteReg(R5, 0x00000000)
T8770 000:496.087 - 0.019ms returns 0x00
T8770 000:496.100 JLINK_WriteReg(R6, 0x00000000)
T8770 000:496.110 - 0.015ms returns 0x00
T8770 000:496.123 JLINK_WriteReg(R7, 0x00000000)
T8770 000:496.134 - 0.016ms returns 0x00
T8770 000:496.146 JLINK_WriteReg(R8, 0x00000000)
T8770 000:496.156 - 0.015ms returns 0x00
T8770 000:496.169 JLINK_WriteReg(R9, 0x20000230)
T8770 000:496.180 - 0.015ms returns 0x00
T8770 000:496.192 JLINK_WriteReg(R10, 0x00000000)
T8770 000:496.203 - 0.016ms returns 0x00
T8770 000:496.215 JLINK_WriteReg(R11, 0x00000000)
T8770 000:496.226 - 0.016ms returns 0x00
T8770 000:496.238 JLINK_WriteReg(R12, 0x00000000)
T8770 000:496.249 - 0.015ms returns 0x00
T8770 000:496.261 JLINK_WriteReg(R13 (SP), 0x20002000)
T8770 000:496.273 - 0.016ms returns 0x00
T8770 000:496.285 JLINK_WriteReg(R14, 0x20000001)
T8770 000:496.296 - 0.016ms returns 0x00
T8770 000:496.308 JLINK_WriteReg(R15 (PC), 0x2000011A)
T8770 000:496.319 - 0.016ms returns 0x00
T8770 000:496.331 JLINK_WriteReg(XPSR, 0x01000000)
T8770 000:496.342 - 0.015ms returns 0x00
T8770 000:496.354 JLINK_WriteReg(MSP, 0x20002000)
T8770 000:496.365 - 0.015ms returns 0x00
T8770 000:496.377 JLINK_WriteReg(PSP, 0x20002000)
T8770 000:496.388 - 0.015ms returns 0x00
T8770 000:496.400 JLINK_WriteReg(CFBP, 0x00000000)
T8770 000:496.410 - 0.015ms returns 0x00
T8770 000:496.423   JLINK_SetBPEx(Addr = 0x20000000, Type = 0xFFFFFFF2)
T8770 000:496.439 - 0.021ms returns 0x00000005
T8770 000:496.451 JLINK_Go()
T8770 000:496.468   CPU_ReadMem(4 bytes @ 0xE0001000)
T8770 000:499.373 - 2.945ms
T8770 000:499.443 JLINK_IsHalted()
T8770 000:500.062 - 0.636ms returns FALSE
T8770 000:502.116 JLINK_IsHalted()
T8770 000:504.637   CPU_ReadMem(2 bytes @ 0x20000000)
T8770 000:505.215 - 3.112ms returns TRUE
T8770 000:505.268 JLINK_ReadReg(R15 (PC))
T8770 000:505.284 - 0.022ms returns 0x20000000
T8770 000:505.298 JLINK_ClrBPEx(BPHandle = 0x00000005)
T8770 000:505.310 - 0.017ms returns 0x00
T8770 000:505.323 JLINK_ReadReg(R0)
T8770 000:505.333 - 0.016ms returns 0x00000000
T8770 000:505.911 JLINK_WriteReg(R0, 0x0007D000)
T8770 000:505.930 - 0.024ms returns 0x00
T8770 000:505.943 JLINK_WriteReg(R1, 0x00001000)
T8770 000:505.954 - 0.015ms returns 0x00
T8770 000:505.966 JLINK_WriteReg(R2, 0x000000FF)
T8770 000:505.977 - 0.015ms returns 0x00
T8770 000:505.992 JLINK_WriteReg(R3, 0x00000000)
T8770 000:506.005 - 0.018ms returns 0x00
T8770 000:506.017 JLINK_WriteReg(R4, 0x00000000)
T8770 000:506.028 - 0.015ms returns 0x00
T8770 000:506.040 JLINK_WriteReg(R5, 0x00000000)
T8770 000:506.052 - 0.017ms returns 0x00
T8770 000:506.065 JLINK_WriteReg(R6, 0x00000000)
T8770 000:506.075 - 0.015ms returns 0x00
T8770 000:506.087 JLINK_WriteReg(R7, 0x00000000)
T8770 000:506.098 - 0.015ms returns 0x00
T8770 000:506.110 JLINK_WriteReg(R8, 0x00000000)
T8770 000:506.120 - 0.015ms returns 0x00
T8770 000:506.132 JLINK_WriteReg(R9, 0x20000230)
T8770 000:506.143 - 0.015ms returns 0x00
T8770 000:506.155 JLINK_WriteReg(R10, 0x00000000)
T8770 000:506.166 - 0.015ms returns 0x00
T8770 000:506.178 JLINK_WriteReg(R11, 0x00000000)
T8770 000:506.189 - 0.015ms returns 0x00
T8770 000:506.201 JLINK_WriteReg(R12, 0x00000000)
T8770 000:506.211 - 0.015ms returns 0x00
T8770 000:506.224 JLINK_WriteReg(R13 (SP), 0x20002000)
T8770 000:506.235 - 0.016ms returns 0x00
T8770 000:506.247 JLINK_WriteReg(R14, 0x20000001)
T8770 000:506.257 - 0.015ms returns 0x00
T8770 000:506.270 JLINK_WriteReg(R15 (PC), 0x2000011A)
T8770 000:506.280 - 0.015ms returns 0x00
T8770 000:506.293 JLINK_WriteReg(XPSR, 0x01000000)
T8770 000:506.303 - 0.015ms returns 0x00
T8770 000:506.315 JLINK_WriteReg(MSP, 0x20002000)
T8770 000:506.326 - 0.015ms returns 0x00
T8770 000:506.338 JLINK_WriteReg(PSP, 0x20002000)
T8770 000:506.349 - 0.015ms returns 0x00
T8770 000:506.361 JLINK_WriteReg(CFBP, 0x00000000)
T8770 000:506.371 - 0.015ms returns 0x00
T8770 000:506.385   JLINK_SetBPEx(Addr = 0x20000000, Type = 0xFFFFFFF2)
T8770 000:506.400 - 0.021ms returns 0x00000006
T8770 000:506.413 JLINK_Go()
T8770 000:506.431   CPU_ReadMem(4 bytes @ 0xE0001000)
T8770 000:509.480 - 3.083ms
T8770 000:509.535 JLINK_IsHalted()
T8770 000:510.161 - 0.639ms returns FALSE
T8770 000:512.123 JLINK_IsHalted()
T8770 000:514.651   CPU_ReadMem(2 bytes @ 0x20000000)
T8770 000:515.194 - 3.091ms returns TRUE
T8770 000:515.271 JLINK_ReadReg(R15 (PC))
T8770 000:515.298 - 0.035ms returns 0x20000000
T8770 000:515.317 JLINK_ClrBPEx(BPHandle = 0x00000006)
T8770 000:515.334 - 0.024ms returns 0x00
T8770 000:515.352 JLINK_ReadReg(R0)
T8770 000:515.368 - 0.023ms returns 0x00000000
T8770 000:515.993 JLINK_WriteReg(R0, 0x00000001)
T8770 000:516.014 - 0.031ms returns 0x00
T8770 000:516.034 JLINK_WriteReg(R1, 0x00001000)
T8770 000:516.046 - 0.017ms returns 0x00
T8770 000:516.059 JLINK_WriteReg(R2, 0x000000FF)
T8770 000:516.069 - 0.015ms returns 0x00
T8770 000:516.082 JLINK_WriteReg(R3, 0x00000000)
T8770 000:516.092 - 0.015ms returns 0x00
T8770 000:516.105 JLINK_WriteReg(R4, 0x00000000)
T8770 000:516.115 - 0.015ms returns 0x00
T8770 000:516.128 JLINK_WriteReg(R5, 0x00000000)
T8770 000:516.138 - 0.015ms returns 0x00
T8770 000:516.151 JLINK_WriteReg(R6, 0x00000000)
T8770 000:516.161 - 0.015ms returns 0x00
T8770 000:516.173 JLINK_WriteReg(R7, 0x00000000)
T8770 000:516.184 - 0.016ms returns 0x00
T8770 000:516.197 JLINK_WriteReg(R8, 0x00000000)
T8770 000:516.207 - 0.015ms returns 0x00
T8770 000:516.219 JLINK_WriteReg(R9, 0x20000230)
T8770 000:516.230 - 0.015ms returns 0x00
T8770 000:516.242 JLINK_WriteReg(R10, 0x00000000)
T8770 000:516.253 - 0.015ms returns 0x00
T8770 000:516.265 JLINK_WriteReg(R11, 0x00000000)
T8770 000:516.276 - 0.015ms returns 0x00
T8770 000:516.288 JLINK_WriteReg(R12, 0x00000000)
T8770 000:516.299 - 0.015ms returns 0x00
T8770 000:516.311 JLINK_WriteReg(R13 (SP), 0x20002000)
T8770 000:516.322 - 0.016ms returns 0x00
T8770 000:516.335 JLINK_WriteReg(R14, 0x20000001)
T8770 000:516.345 - 0.015ms returns 0x00
T8770 000:516.357 JLINK_WriteReg(R15 (PC), 0x2000008E)
T8770 000:516.368 - 0.015ms returns 0x00
T8770 000:516.380 JLINK_WriteReg(XPSR, 0x01000000)
T8770 000:516.391 - 0.015ms returns 0x00
T8770 000:516.403 JLINK_WriteReg(MSP, 0x20002000)
T8770 000:516.414 - 0.016ms returns 0x00
T8770 000:516.426 JLINK_WriteReg(PSP, 0x20002000)
T8770 000:516.437 - 0.016ms returns 0x00
T8770 000:516.449 JLINK_WriteReg(CFBP, 0x00000000)
T8770 000:516.467 - 0.023ms returns 0x00
T8770 000:516.480   JLINK_SetBPEx(Addr = 0x20000000, Type = 0xFFFFFFF2)
T8770 000:516.497 - 0.022ms returns 0x00000007
T8770 000:516.510 JLINK_Go()
T8770 000:516.531   CPU_ReadMem(4 bytes @ 0xE0001000)
T8770 000:519.603 - 3.110ms
T8770 000:519.659 JLINK_IsHalted()
T8770 000:522.212   CPU_ReadMem(2 bytes @ 0x20000000)
T8770 000:522.813 - 3.167ms returns TRUE
T8770 000:522.868 JLINK_ReadReg(R15 (PC))
T8770 000:522.884 - 0.022ms returns 0x20000000
T8770 000:522.906 JLINK_ClrBPEx(BPHandle = 0x00000007)
T8770 000:522.926 - 0.028ms returns 0x00
T8770 000:522.948 JLINK_ReadReg(R0)
T8770 000:522.966 - 0.023ms returns 0x00000000
T8770 000:525.204 JLINK_WriteMem(0x20000000, 0x00F8 Bytes, ...)
T8770 000:525.220   Data:  00 BE 0A E0 0D 78 2D 06 68 40 08 24 40 00 00 D3 ...
T8770 000:525.243   CPU_WriteMem(248 bytes @ 0x20000000)
T8770 000:526.561 - 1.370ms returns 0xF8
T8770 000:526.658 JLINK_WriteReg(R0, 0x10001000)
T8770 000:526.675 - 0.022ms returns 0x00
T8770 000:526.688 JLINK_WriteReg(R1, 0x03D09000)
T8770 000:526.700 - 0.017ms returns 0x00
T8770 000:526.712 JLINK_WriteReg(R2, 0x00000001)
T8770 000:526.723 - 0.016ms returns 0x00
T8770 000:526.770 JLINK_WriteReg(R3, 0x00000000)
T8770 000:526.781 - 0.016ms returns 0x00
T8770 000:526.793 JLINK_WriteReg(R4, 0x00000000)
T8770 000:526.804 - 0.015ms returns 0x00
T8770 000:526.816 JLINK_WriteReg(R5, 0x00000000)
T8770 000:526.827 - 0.016ms returns 0x00
T8770 000:526.839 JLINK_WriteReg(R6, 0x00000000)
T8770 000:526.850 - 0.015ms returns 0x00
T8770 000:526.862 JLINK_WriteReg(R7, 0x00000000)
T8770 000:526.872 - 0.015ms returns 0x00
T8770 000:526.884 JLINK_WriteReg(R8, 0x00000000)
T8770 000:526.895 - 0.015ms returns 0x00
T8770 000:526.907 JLINK_WriteReg(R9, 0x200000F4)
T8770 000:526.917 - 0.015ms returns 0x00
T8770 000:526.930 JLINK_WriteReg(R10, 0x00000000)
T8770 000:526.940 - 0.016ms returns 0x00
T8770 000:526.953 JLINK_WriteReg(R11, 0x00000000)
T8770 000:526.964 - 0.015ms returns 0x00
T8770 000:526.976 JLINK_WriteReg(R12, 0x00000000)
T8770 000:526.986 - 0.015ms returns 0x00
T8770 000:526.999 JLINK_WriteReg(R13 (SP), 0x20002000)
T8770 000:527.010 - 0.016ms returns 0x00
T8770 000:527.025 JLINK_WriteReg(R14, 0x20000001)
T8770 000:527.036 - 0.016ms returns 0x00
T8770 000:527.048 JLINK_WriteReg(R15 (PC), 0x20000028)
T8770 000:527.059 - 0.015ms returns 0x00
T8770 000:527.071 JLINK_WriteReg(XPSR, 0x01000000)
T8770 000:527.082 - 0.015ms returns 0x00
T8770 000:527.094 JLINK_WriteReg(MSP, 0x20002000)
T8770 000:527.105 - 0.016ms returns 0x00
T8770 000:527.117 JLINK_WriteReg(PSP, 0x20002000)
T8770 000:527.128 - 0.015ms returns 0x00
T8770 000:527.140 JLINK_WriteReg(CFBP, 0x00000000)
T8770 000:527.151 - 0.015ms returns 0x00
T8770 000:527.164   JLINK_SetBPEx(Addr = 0x20000000, Type = 0xFFFFFFF2)
T8770 000:527.183   CPU_ReadMem(2 bytes @ 0x20000000)
T8770 000:527.825 - 0.675ms returns 0x00000008
T8770 000:527.877 JLINK_Go()
T8770 000:527.895   CPU_WriteMem(2 bytes @ 0x20000000)
T8770 000:528.500   CPU_ReadMem(4 bytes @ 0xE0001000)
T8770 000:531.242 - 3.384ms
T8770 000:531.303 JLINK_IsHalted()
T8770 000:533.699   CPU_ReadMem(2 bytes @ 0x20000000)
T8770 000:534.304 - 3.016ms returns TRUE
T8770 000:534.360 JLINK_ReadReg(R15 (PC))
T8770 000:534.377 - 0.023ms returns 0x20000000
T8770 000:534.391 JLINK_ClrBPEx(BPHandle = 0x00000008)
T8770 000:534.403 - 0.017ms returns 0x00
T8770 000:534.417 JLINK_ReadReg(R0)
T8770 000:534.428 - 0.016ms returns 0x00000000
T8770 000:534.813 JLINK_WriteReg(R0, 0x10001000)
T8770 000:534.832 - 0.024ms returns 0x00
T8770 000:534.845 JLINK_WriteReg(R1, 0x00001000)
T8770 000:534.856 - 0.016ms returns 0x00
T8770 000:534.869 JLINK_WriteReg(R2, 0x000000FF)
T8770 000:534.879 - 0.015ms returns 0x00
T8770 000:534.892 JLINK_WriteReg(R3, 0x00000000)
T8770 000:534.902 - 0.015ms returns 0x00
T8770 000:534.914 JLINK_WriteReg(R4, 0x00000000)
T8770 000:534.924 - 0.015ms returns 0x00
T8770 000:534.937 JLINK_WriteReg(R5, 0x00000000)
T8770 000:534.947 - 0.067ms returns 0x00
T8770 000:535.016 JLINK_WriteReg(R6, 0x00000000)
T8770 000:535.028 - 0.017ms returns 0x00
T8770 000:535.041 JLINK_WriteReg(R7, 0x00000000)
T8770 000:535.051 - 0.015ms returns 0x00
T8770 000:535.064 JLINK_WriteReg(R8, 0x00000000)
T8770 000:535.074 - 0.015ms returns 0x00
T8770 000:535.087 JLINK_WriteReg(R9, 0x200000F4)
T8770 000:535.097 - 0.015ms returns 0x00
T8770 000:535.109 JLINK_WriteReg(R10, 0x00000000)
T8770 000:535.120 - 0.015ms returns 0x00
T8770 000:535.132 JLINK_WriteReg(R11, 0x00000000)
T8770 000:535.143 - 0.015ms returns 0x00
T8770 000:535.155 JLINK_WriteReg(R12, 0x00000000)
T8770 000:535.166 - 0.015ms returns 0x00
T8770 000:535.178 JLINK_WriteReg(R13 (SP), 0x20002000)
T8770 000:535.190 - 0.016ms returns 0x00
T8770 000:535.202 JLINK_WriteReg(R14, 0x20000001)
T8770 000:535.212 - 0.015ms returns 0x00
T8770 000:535.225 JLINK_WriteReg(R15 (PC), 0x200000D0)
T8770 000:535.235 - 0.015ms returns 0x00
T8770 000:535.248 JLINK_WriteReg(XPSR, 0x01000000)
T8770 000:535.258 - 0.015ms returns 0x00
T8770 000:535.271 JLINK_WriteReg(MSP, 0x20002000)
T8770 000:535.281 - 0.015ms returns 0x00
T8770 000:535.293 JLINK_WriteReg(PSP, 0x20002000)
T8770 000:535.304 - 0.015ms returns 0x00
T8770 000:535.316 JLINK_WriteReg(CFBP, 0x00000000)
T8770 000:535.326 - 0.015ms returns 0x00
T8770 000:535.340   JLINK_SetBPEx(Addr = 0x20000000, Type = 0xFFFFFFF2)
T8770 000:535.356 - 0.022ms returns 0x00000009
T8770 000:535.370 JLINK_Go()
T8770 000:535.389   CPU_ReadMem(4 bytes @ 0xE0001000)
T8770 000:538.151 - 2.796ms
T8770 000:538.205 JLINK_IsHalted()
T8770 000:540.643   CPU_ReadMem(2 bytes @ 0x20000000)
T8770 000:541.219 - 3.029ms returns TRUE
T8770 000:541.275 JLINK_ReadReg(R15 (PC))
T8770 000:541.292 - 0.023ms returns 0x20000000
T8770 000:541.307 JLINK_ClrBPEx(BPHandle = 0x00000009)
T8770 000:541.319 - 0.017ms returns 0x00
T8770 000:541.333 JLINK_ReadReg(R0)
T8770 000:541.345 - 0.017ms returns 0x00000001
T8770 000:541.362 JLINK_WriteReg(R0, 0x10001000)
T8770 000:541.375 - 0.018ms returns 0x00
T8770 000:541.388 JLINK_WriteReg(R1, 0x00001000)
T8770 000:541.400 - 0.017ms returns 0x00
T8770 000:541.413 JLINK_WriteReg(R2, 0x000000FF)
T8770 000:541.424 - 0.017ms returns 0x00
T8770 000:541.438 JLINK_WriteReg(R3, 0x00000000)
T8770 000:541.449 - 0.017ms returns 0x00
T8770 000:541.462 JLINK_WriteReg(R4, 0x00000000)
T8770 000:541.473 - 0.016ms returns 0x00
T8770 000:541.486 JLINK_WriteReg(R5, 0x00000000)
T8770 000:541.498 - 0.016ms returns 0x00
T8770 000:541.511 JLINK_WriteReg(R6, 0x00000000)
T8770 000:541.522 - 0.016ms returns 0x00
T8770 000:541.535 JLINK_WriteReg(R7, 0x00000000)
T8770 000:541.546 - 0.016ms returns 0x00
T8770 000:541.559 JLINK_WriteReg(R8, 0x00000000)
T8770 000:541.570 - 0.017ms returns 0x00
T8770 000:541.583 JLINK_WriteReg(R9, 0x200000F4)
T8770 000:541.594 - 0.016ms returns 0x00
T8770 000:541.607 JLINK_WriteReg(R10, 0x00000000)
T8770 000:541.619 - 0.016ms returns 0x00
T8770 000:541.631 JLINK_WriteReg(R11, 0x00000000)
T8770 000:541.642 - 0.016ms returns 0x00
T8770 000:541.655 JLINK_WriteReg(R12, 0x00000000)
T8770 000:541.667 - 0.016ms returns 0x00
T8770 000:541.679 JLINK_WriteReg(R13 (SP), 0x20002000)
T8770 000:541.690 - 0.016ms returns 0x00
T8770 000:541.703 JLINK_WriteReg(R14, 0x20000001)
T8770 000:541.714 - 0.016ms returns 0x00
T8770 000:541.727 JLINK_WriteReg(R15 (PC), 0x20000078)
T8770 000:541.738 - 0.016ms returns 0x00
T8770 000:541.750 JLINK_WriteReg(XPSR, 0x01000000)
T8770 000:541.761 - 0.016ms returns 0x00
T8770 000:541.774 JLINK_WriteReg(MSP, 0x20002000)
T8770 000:541.785 - 0.016ms returns 0x00
T8770 000:541.798 JLINK_WriteReg(PSP, 0x20002000)
T8770 000:541.809 - 0.016ms returns 0x00
T8770 000:541.821 JLINK_WriteReg(CFBP, 0x00000000)
T8770 000:541.832 - 0.016ms returns 0x00
T8770 000:541.845   JLINK_SetBPEx(Addr = 0x20000000, Type = 0xFFFFFFF2)
T8770 000:541.862 - 0.022ms returns 0x0000000A
T8770 000:541.875 JLINK_Go()
T8770 000:541.897   CPU_ReadMem(4 bytes @ 0xE0001000)
T8770 000:544.830 - 2.971ms
T8770 000:544.886 JLINK_IsHalted()
T8770 000:545.490 - 0.618ms returns FALSE
T8770 000:547.976 JLINK_IsHalted()
T8770 000:550.704   CPU_ReadMem(2 bytes @ 0x20000000)
T8770 000:551.317 - 3.353ms returns TRUE
T8770 000:551.369 JLINK_ReadReg(R15 (PC))
T8770 000:551.386 - 0.022ms returns 0x20000000
T8770 000:551.404 JLINK_ClrBPEx(BPHandle = 0x0000000A)
T8770 000:551.416 - 0.017ms returns 0x00
T8770 000:551.430 JLINK_ReadReg(R0)
T8770 000:551.441 - 0.016ms returns 0x00000000
T8770 000:551.860 JLINK_WriteReg(R0, 0x00000001)
T8770 000:551.879 - 0.024ms returns 0x00
T8770 000:551.892 JLINK_WriteReg(R1, 0x00001000)
T8770 000:551.903 - 0.016ms returns 0x00
T8770 000:551.915 JLINK_WriteReg(R2, 0x000000FF)
T8770 000:551.926 - 0.016ms returns 0x00
T8770 000:551.939 JLINK_WriteReg(R3, 0x00000000)
T8770 000:551.951 - 0.018ms returns 0x00
T8770 000:551.964 JLINK_WriteReg(R4, 0x00000000)
T8770 000:551.975 - 0.016ms returns 0x00
T8770 000:551.987 JLINK_WriteReg(R5, 0x00000000)
T8770 000:551.998 - 0.015ms returns 0x00
T8770 000:552.010 JLINK_WriteReg(R6, 0x00000000)
T8770 000:552.021 - 0.015ms returns 0x00
T8770 000:552.033 JLINK_WriteReg(R7, 0x00000000)
T8770 000:552.043 - 0.015ms returns 0x00
T8770 000:552.056 JLINK_WriteReg(R8, 0x00000000)
T8770 000:552.066 - 0.015ms returns 0x00
T8770 000:552.079 JLINK_WriteReg(R9, 0x200000F4)
T8770 000:552.089 - 0.015ms returns 0x00
T8770 000:552.101 JLINK_WriteReg(R10, 0x00000000)
T8770 000:552.112 - 0.016ms returns 0x00
T8770 000:552.125 JLINK_WriteReg(R11, 0x00000000)
T8770 000:552.136 - 0.015ms returns 0x00
T8770 000:552.148 JLINK_WriteReg(R12, 0x00000000)
T8770 000:552.158 - 0.015ms returns 0x00
T8770 000:552.171 JLINK_WriteReg(R13 (SP), 0x20002000)
T8770 000:552.183 - 0.016ms returns 0x00
T8770 000:552.195 JLINK_WriteReg(R14, 0x20000001)
T8770 000:552.206 - 0.015ms returns 0x00
T8770 000:552.218 JLINK_WriteReg(R15 (PC), 0x20000052)
T8770 000:552.229 - 0.016ms returns 0x00
T8770 000:552.241 JLINK_WriteReg(XPSR, 0x01000000)
T8770 000:552.252 - 0.015ms returns 0x00
T8770 000:552.264 JLINK_WriteReg(MSP, 0x20002000)
T8770 000:552.275 - 0.015ms returns 0x00
T8770 000:552.287 JLINK_WriteReg(PSP, 0x20002000)
T8770 000:552.298 - 0.015ms returns 0x00
T8770 000:552.310 JLINK_WriteReg(CFBP, 0x00000000)
T8770 000:552.321 - 0.015ms returns 0x00
T8770 000:552.334   JLINK_SetBPEx(Addr = 0x20000000, Type = 0xFFFFFFF2)
T8770 000:552.350 - 0.021ms returns 0x0000000B
T8770 000:552.363 JLINK_Go()
T8770 000:552.381   CPU_ReadMem(4 bytes @ 0xE0001000)
T8770 000:555.241 - 2.890ms
T8770 000:555.288 JLINK_IsHalted()
T8770 000:557.742   CPU_ReadMem(2 bytes @ 0x20000000)
T8770 000:558.341 - 3.064ms returns TRUE
T8770 000:558.385 JLINK_ReadReg(R15 (PC))
T8770 000:558.400 - 0.020ms returns 0x20000000
T8770 000:558.414 JLINK_ClrBPEx(BPHandle = 0x0000000B)
T8770 000:558.425 - 0.016ms returns 0x00
T8770 000:558.438 JLINK_ReadReg(R0)
T8770 000:558.449 - 0.016ms returns 0x00000000
T8770 000:614.372 JLINK_WriteMem(0x20000000, 0x0234 Bytes, ...)
T8770 000:614.402   Data:  00 BE 0A E0 0D 78 2D 06 68 40 08 24 40 00 00 D3 ...
T8770 000:614.439   CPU_WriteMem(564 bytes @ 0x20000000)
T8770 000:616.799 - 2.454ms returns 0x234
T8770 000:616.966 JLINK_WriteReg(R0, 0x00000000)
T8770 000:616.992 - 0.035ms returns 0x00
T8770 000:617.011 JLINK_WriteReg(R1, 0x03D09000)
T8770 000:617.028 - 0.024ms returns 0x00
T8770 000:617.046 JLINK_WriteReg(R2, 0x00000002)
T8770 000:617.062 - 0.023ms returns 0x00
T8770 000:617.080 JLINK_WriteReg(R3, 0x00000000)
T8770 000:617.097 - 0.024ms returns 0x00
T8770 000:617.115 JLINK_WriteReg(R4, 0x00000000)
T8770 000:617.130 - 0.023ms returns 0x00
T8770 000:617.147 JLINK_WriteReg(R5, 0x00000000)
T8770 000:617.163 - 0.023ms returns 0x00
T8770 000:617.181 JLINK_WriteReg(R6, 0x00000000)
T8770 000:617.197 - 0.023ms returns 0x00
T8770 000:617.215 JLINK_WriteReg(R7, 0x00000000)
T8770 000:617.231 - 0.023ms returns 0x00
T8770 000:617.248 JLINK_WriteReg(R8, 0x00000000)
T8770 000:617.264 - 0.023ms returns 0x00
T8770 000:617.282 JLINK_WriteReg(R9, 0x20000230)
T8770 000:617.303 - 0.032ms returns 0x00
T8770 000:617.324 JLINK_WriteReg(R10, 0x00000000)
T8770 000:617.340 - 0.023ms returns 0x00
T8770 000:617.358 JLINK_WriteReg(R11, 0x00000000)
T8770 000:617.374 - 0.023ms returns 0x00
T8770 000:617.391 JLINK_WriteReg(R12, 0x00000000)
T8770 000:617.407 - 0.023ms returns 0x00
T8770 000:617.425 JLINK_WriteReg(R13 (SP), 0x20002000)
T8770 000:617.442 - 0.024ms returns 0x00
T8770 000:617.460 JLINK_WriteReg(R14, 0x20000001)
T8770 000:617.476 - 0.023ms returns 0x00
T8770 000:617.493 JLINK_WriteReg(R15 (PC), 0x2000003C)
T8770 000:617.510 - 0.024ms returns 0x00
T8770 000:617.527 JLINK_WriteReg(XPSR, 0x01000000)
T8770 000:617.544 - 0.023ms returns 0x00
T8770 000:617.561 JLINK_WriteReg(MSP, 0x20002000)
T8770 000:617.577 - 0.023ms returns 0x00
T8770 000:617.594 JLINK_WriteReg(PSP, 0x20002000)
T8770 000:617.610 - 0.023ms returns 0x00
T8770 000:617.628 JLINK_WriteReg(CFBP, 0x00000000)
T8770 000:617.644 - 0.023ms returns 0x00
T8770 000:617.663   JLINK_SetBPEx(Addr = 0x20000000, Type = 0xFFFFFFF2)
T8770 000:617.692   CPU_ReadMem(2 bytes @ 0x20000000)
T8770 000:618.376 - 0.730ms returns 0x0000000C
T8770 000:618.433 JLINK_Go()
T8770 000:618.452   CPU_WriteMem(2 bytes @ 0x20000000)
T8770 000:619.100   CPU_ReadMem(4 bytes @ 0xE0001000)
T8770 000:621.761 - 3.350ms
T8770 000:621.835 JLINK_IsHalted()
T8770 000:624.307   CPU_ReadMem(2 bytes @ 0x20000000)
T8770 000:624.861 - 3.040ms returns TRUE
T8770 000:624.926 JLINK_ReadReg(R15 (PC))
T8770 000:624.949 - 0.031ms returns 0x20000000
T8770 000:624.969 JLINK_ClrBPEx(BPHandle = 0x0000000C)
T8770 000:624.986 - 0.025ms returns 0x00
T8770 000:625.005 JLINK_ReadReg(R0)
T8770 000:625.022 - 0.024ms returns 0x00000000
T8770 000:625.516 JLINK_WriteMem(0x20000234, 0x01CC Bytes, ...)
T8770 000:625.538   Data:  40 55 00 20 21 92 07 00 29 92 07 00 01 95 07 00 ...
T8770 000:625.572   CPU_WriteMem(460 bytes @ 0x20000234)
T8770 000:627.486 - 1.985ms returns 0x1CC
T8770 000:627.539 JLINK_WriteMem(0x20000400, 0x0400 Bytes, ...)
T8770 000:627.552   Data:  00 00 00 00 00 00 00 00 00 00 00 00 00 00 00 00 ...
T8770 000:627.577   CPU_WriteMem(1024 bytes @ 0x20000400)
T8770 000:631.081 - 3.565ms returns 0x400
T8770 000:631.165 JLINK_WriteMem(0x20000800, 0x0400 Bytes, ...)
T8770 000:631.185   Data:  10 BD 00 00 95 A9 07 00 F0 B5 AE 48 00 23 02 1D ...
T8770 000:631.217   CPU_WriteMem(1024 bytes @ 0x20000800)
T8770 000:634.823 - 3.677ms returns 0x400
T8770 000:634.891 JLINK_WriteMem(0x20000C00, 0x0400 Bytes, ...)
T8770 000:634.905   Data:  B2 20 02 F0 E9 F8 BD E8 70 40 4E 20 01 F0 BE B8 ...
T8770 000:634.934   CPU_WriteMem(1024 bytes @ 0x20000C00)
T8770 000:638.504 - 3.630ms returns 0x400
T8770 000:638.567 JLINK_WriteMem(0x20001000, 0x0234 Bytes, ...)
T8770 000:638.586   Data:  20 B1 09 28 04 D0 09 21 01 F0 22 FC 84 F8 05 80 ...
T8770 000:638.611   CPU_WriteMem(564 bytes @ 0x20001000)
T8770 000:640.807 - 2.262ms returns 0x234
T8770 000:640.879 JLINK_WriteReg(R0, 0x00079000)
T8770 000:640.896 - 0.023ms returns 0x00
T8770 000:640.911 JLINK_WriteReg(R1, 0x00001000)
T8770 000:640.922 - 0.016ms returns 0x00
T8770 000:640.936 JLINK_WriteReg(R2, 0x20000234)
T8770 000:640.946 - 0.015ms returns 0x00
T8770 000:640.960 JLINK_WriteReg(R3, 0x00000000)
T8770 000:640.970 - 0.015ms returns 0x00
T8770 000:640.984 JLINK_WriteReg(R4, 0x00000000)
T8770 000:640.994 - 0.015ms returns 0x00
T8770 000:641.008 JLINK_WriteReg(R5, 0x00000000)
T8770 000:641.018 - 0.015ms returns 0x00
T8770 000:641.032 JLINK_WriteReg(R6, 0x00000000)
T8770 000:641.042 - 0.015ms returns 0x00
T8770 000:641.056 JLINK_WriteReg(R7, 0x00000000)
T8770 000:641.066 - 0.015ms returns 0x00
T8770 000:641.080 JLINK_WriteReg(R8, 0x00000000)
T8770 000:641.090 - 0.015ms returns 0x00
T8770 000:641.104 JLINK_WriteReg(R9, 0x20000230)
T8770 000:641.114 - 0.015ms returns 0x00
T8770 000:641.128 JLINK_WriteReg(R10, 0x00000000)
T8770 000:641.138 - 0.015ms returns 0x00
T8770 000:641.152 JLINK_WriteReg(R11, 0x00000000)
T8770 000:641.163 - 0.015ms returns 0x00
T8770 000:641.177 JLINK_WriteReg(R12, 0x00000000)
T8770 000:641.193 - 0.021ms returns 0x00
T8770 000:641.207 JLINK_WriteReg(R13 (SP), 0x20002000)
T8770 000:641.218 - 0.016ms returns 0x00
T8770 000:641.230 JLINK_WriteReg(R14, 0x20000001)
T8770 000:641.241 - 0.015ms returns 0x00
T8770 000:641.253 JLINK_WriteReg(R15 (PC), 0x20000156)
T8770 000:641.264 - 0.015ms returns 0x00
T8770 000:641.277 JLINK_WriteReg(XPSR, 0x01000000)
T8770 000:641.287 - 0.015ms returns 0x00
T8770 000:641.300 JLINK_WriteReg(MSP, 0x20002000)
T8770 000:641.310 - 0.015ms returns 0x00
T8770 000:641.322 JLINK_WriteReg(PSP, 0x20002000)
T8770 000:641.333 - 0.015ms returns 0x00
T8770 000:641.346 JLINK_WriteReg(CFBP, 0x00000000)
T8770 000:641.356 - 0.015ms returns 0x00
T8770 000:641.370   JLINK_SetBPEx(Addr = 0x20000000, Type = 0xFFFFFFF2)
T8770 000:641.385 - 0.021ms returns 0x0000000D
T8770 000:641.400 JLINK_Go()
T8770 000:641.419   CPU_ReadMem(4 bytes @ 0xE0001000)
T8770 000:644.141 - 2.757ms
T8770 000:644.203 JLINK_IsHalted()
T8770 000:644.811 - 0.621ms returns FALSE
T8770 000:649.681 JLINK_IsHalted()
T8770 000:650.399 - 0.734ms returns FALSE
T8770 000:651.671 JLINK_IsHalted()
T8770 000:652.222 - 0.563ms returns FALSE
T8770 000:653.661 JLINK_IsHalted()
T8770 000:654.128 - 0.477ms returns FALSE
T8770 000:655.657 JLINK_IsHalted()
T8770 000:656.133 - 0.490ms returns FALSE
T8770 000:657.650 JLINK_IsHalted()
T8770 000:658.100 - 0.461ms returns FALSE
T8770 000:659.681 JLINK_IsHalted()
T8770 000:660.184 - 0.516ms returns FALSE
T8770 000:661.672 JLINK_IsHalted()
T8770 000:662.316 - 0.657ms returns FALSE
T8770 000:663.665 JLINK_IsHalted()
T8770 000:664.396 - 0.748ms returns FALSE
T8770 000:665.666 JLINK_IsHalted()
T8770 000:666.387 - 0.734ms returns FALSE
T8770 000:667.661 JLINK_IsHalted()
T8770 000:668.374 - 0.727ms returns FALSE
T8770 000:669.656 JLINK_IsHalted()
T8770 000:670.355 - 0.712ms returns FALSE
T8770 000:671.650 JLINK_IsHalted()
T8770 000:672.331 - 0.694ms returns FALSE
T8770 000:673.615 JLINK_IsHalted()
T8770 000:674.362 - 0.761ms returns FALSE
T8770 000:675.648 JLINK_IsHalted()
T8770 000:676.324 - 0.691ms returns FALSE
T8770 000:677.639 JLINK_IsHalted()
T8770 000:678.306 - 0.682ms returns FALSE
T8770 000:679.631 JLINK_IsHalted()
T8770 000:680.330 - 0.713ms returns FALSE
T8770 000:681.600 JLINK_IsHalted()
T8770 000:682.281 - 0.694ms returns FALSE
T8770 000:683.622 JLINK_IsHalted()
T8770 000:684.326 - 0.716ms returns FALSE
T8770 000:685.617 JLINK_IsHalted()
T8770 000:686.277 - 0.673ms returns FALSE
T8770 000:687.613 JLINK_IsHalted()
T8770 000:688.306 - 0.706ms returns FALSE
T8770 000:689.604 JLINK_IsHalted()
T8770 000:690.301 - 0.709ms returns FALSE
T8770 000:691.606 JLINK_IsHalted()
T8770 000:692.266 - 0.672ms returns FALSE
T8770 000:693.596 JLINK_IsHalted()
T8770 000:694.239 - 0.654ms returns FALSE
T8770 000:695.591 JLINK_IsHalted()
T8770 000:696.266 - 0.688ms returns FALSE
T8770 000:697.583 JLINK_IsHalted()
T8770 000:698.178 - 0.616ms returns FALSE
T8770 000:699.576 JLINK_IsHalted()
T8770 000:700.231 - 0.668ms returns FALSE
T8770 000:701.603 JLINK_IsHalted()
T8770 000:702.257 - 0.668ms returns FALSE
T8770 000:703.600 JLINK_IsHalted()
T8770 000:704.247 - 0.661ms returns FALSE
T8770 000:705.595 JLINK_IsHalted()
T8770 000:706.310 - 0.729ms returns FALSE
T8770 000:707.556 JLINK_IsHalted()
T8770 000:708.264 - 0.723ms returns FALSE
T8770 000:709.553 JLINK_IsHalted()
T8770 000:710.226 - 0.687ms returns FALSE
T8770 000:711.579 JLINK_IsHalted()
T8770 000:712.194 - 0.631ms returns FALSE
T8770 000:713.549 JLINK_IsHalted()
T8770 000:716.095   CPU_ReadMem(2 bytes @ 0x20000000)
T8770 000:716.663 - 3.129ms returns TRUE
T8770 000:716.727 JLINK_ReadReg(R15 (PC))
T8770 000:716.751 - 0.032ms returns 0x20000000
T8770 000:716.771 JLINK_ClrBPEx(BPHandle = 0x0000000D)
T8770 000:716.786 - 0.022ms returns 0x00
T8770 000:716.803 JLINK_ReadReg(R0)
T8770 000:716.820 - 0.024ms returns 0x00000000
T8770 000:717.586 JLINK_WriteMem(0x20000234, 0x01CC Bytes, ...)
T8770 000:717.611   Data:  04 D1 A5 F1 2A 01 09 88 81 42 02 D0 00 20 00 F0 ...
T8770 000:717.642   CPU_WriteMem(460 bytes @ 0x20000234)
T8770 000:719.535 - 1.965ms returns 0x1CC
T8770 000:719.592 JLINK_WriteMem(0x20000400, 0x0400 Bytes, ...)
T8770 000:719.607   Data:  80 41 20 39 02 D0 08 B1 00 F0 50 FA 02 F0 DA FF ...
T8770 000:719.631   CPU_WriteMem(1024 bytes @ 0x20000400)
T8770 000:723.183 - 3.610ms returns 0x400
T8770 000:723.261 JLINK_WriteMem(0x20000800, 0x0400 Bytes, ...)
T8770 000:723.282   Data:  8D F8 07 00 4B 46 6A 46 08 21 48 46 C9 DF 08 B1 ...
T8770 000:723.315   CPU_WriteMem(1024 bytes @ 0x20000800)
T8770 000:726.813 - 3.568ms returns 0x400
T8770 000:726.874 JLINK_WriteMem(0x20000C00, 0x0400 Bytes, ...)
T8770 000:726.888   Data:  00 20 20 62 70 BD 1C 4A 0D 79 1C 32 13 78 AB 42 ...
T8770 000:726.912   CPU_WriteMem(1024 bytes @ 0x20000C00)
T8770 000:730.439 - 3.583ms returns 0x400
T8770 000:730.499 JLINK_WriteMem(0x20001000, 0x0234 Bytes, ...)
T8770 000:730.513   Data:  97 FC 00 28 07 D1 00 F0 F1 FD 02 F0 E7 F9 BD E8 ...
T8770 000:730.539   CPU_WriteMem(564 bytes @ 0x20001000)
T8770 000:732.857 - 2.378ms returns 0x234
T8770 000:732.942 JLINK_WriteReg(R0, 0x0007A000)
T8770 000:732.966 - 0.030ms returns 0x00
T8770 000:732.980 JLINK_WriteReg(R1, 0x00001000)
T8770 000:732.991 - 0.016ms returns 0x00
T8770 000:733.003 JLINK_WriteReg(R2, 0x20000234)
T8770 000:733.013 - 0.015ms returns 0x00
T8770 000:733.026 JLINK_WriteReg(R3, 0x00000000)
T8770 000:733.036 - 0.015ms returns 0x00
T8770 000:733.048 JLINK_WriteReg(R4, 0x00000000)
T8770 000:733.058 - 0.015ms returns 0x00
T8770 000:733.071 JLINK_WriteReg(R5, 0x00000000)
T8770 000:733.081 - 0.015ms returns 0x00
T8770 000:733.093 JLINK_WriteReg(R6, 0x00000000)
T8770 000:733.103 - 0.015ms returns 0x00
T8770 000:733.115 JLINK_WriteReg(R7, 0x00000000)
T8770 000:733.126 - 0.015ms returns 0x00
